!Keysight Technologies,N5227A,US51270384,A.10.49.03
!Date: Thursday, March 05, 2020 13:21:59
!Correction: S11(Response(S41)) 
!S41(Response(S41)) 
!S14(Response(S41)) 
!S44(Response(S41)) 
!S2P File: Measurements: S11, S41, S14, S44:
# Hz S  RI   R 50
4000000000 0.0096945819 0.038006589 0.0096945819 0.038006589 0.0096945819 0.038006589 0.0096945819 0.038006589
4010000000 0.035270784 0.017232254 0.035270784 0.017232254 0.035270784 0.017232254 0.035270784 0.017232254
4020000000 0.035272013 -0.01559738 0.035272013 -0.01559738 0.035272013 -0.01559738 0.035272013 -0.01559738
4030000000 0.011328684 -0.036585409 0.011328684 -0.036585409 0.011328684 -0.036585409 0.011328684 -0.036585409
4040000000 -0.020130392 -0.032156762 -0.020130392 -0.032156762 -0.020130392 -0.032156762 -0.020130392 -0.032156762
4050000000 -0.037567537 -0.0060843695 -0.037567537 -0.0060843695 -0.037567537 -0.0060843695 -0.037567537 -0.0060843695
4060000000 -0.028729904 0.024661247 -0.028729904 0.024661247 -0.028729904 0.024661247 -0.028729904 0.024661247
4070000000 -0.00018704913 0.037604704 -0.00018704913 0.037604704 -0.00018704913 0.037604704 -0.00018704913 0.037604704
4080000000 0.027877115 0.024308242 0.027877115 0.024308242 0.027877115 0.024308242 0.027877115 0.024308242
4090000000 0.036547497 -0.0046396754 0.036547497 -0.0046396754 0.036547497 -0.0046396754 0.036547497 -0.0046396754
4100000000 0.020335952 -0.030365651 0.020335952 -0.030365651 0.020335952 -0.030365651 0.020335952 -0.030365651
4110000000 -0.0089169359 -0.035327643 -0.0089169359 -0.035327643 -0.0089169359 -0.035327643 -0.0089169359 -0.035327643
4120000000 -0.032570388 -0.016652679 -0.032570388 -0.016652679 -0.032570388 -0.016652679 -0.032570388 -0.016652679
4130000000 -0.034304094 0.013396572 -0.034304094 0.013396572 -0.034304094 0.013396572 -0.034304094 0.013396572
4140000000 -0.01215369 0.034967847 -0.01215369 0.034967847 -0.01215369 0.034967847 -0.01215369 0.034967847
4150000000 0.01791523 0.032050043 0.01791523 0.032050043 0.01791523 0.032050043 0.01791523 0.032050043
4160000000 0.036050763 0.0077701132 0.036050763 0.0077701132 0.036050763 0.0077701132 0.036050763 0.0077701132
4170000000 0.029827226 -0.021789595 0.029827226 -0.021789595 0.029827226 -0.021789595 0.029827226 -0.021789595
4180000000 0.0032257475 -0.037297267 0.0032257475 -0.037297267 0.0032257475 -0.037297267 0.0032257475 -0.037297267
4190000000 -0.025876505 -0.026993265 -0.025876505 -0.026993265 -0.025876505 -0.026993265 -0.025876505 -0.026993265
4200000000 -0.037776954 0.0015437012 -0.037776954 0.0015437012 -0.037776954 0.0015437012 -0.037776954 0.0015437012
4210000000 -0.023783274 0.029668722 -0.023783274 0.029668722 -0.023783274 0.029668722 -0.023783274 0.029668722
4220000000 0.0068420693 0.037613001 0.0068420693 0.037613001 0.0068420693 0.037613001 0.0068420693 0.037613001
4230000000 0.032744013 0.019828837 0.032744013 0.019828837 0.032744013 0.019828837 0.032744013 0.019828837
4240000000 0.037026647 -0.011555078 0.037026647 -0.011555078 0.037026647 -0.011555078 0.037026647 -0.011555078
4250000000 0.015803643 -0.036011081 0.015803643 -0.036011081 0.015803643 -0.036011081 0.015803643 -0.036011081
4260000000 -0.017083619 -0.035778858 -0.017083619 -0.035778858 -0.017083619 -0.035778858 -0.017083619 -0.035778858
4270000000 -0.038451087 -0.010549383 -0.038451087 -0.010549383 -0.038451087 -0.010549383 -0.038451087 -0.010549383
4280000000 -0.033406325 0.022316085 -0.033406325 0.022316085 -0.033406325 0.022316085 -0.033406325 0.022316085
4290000000 -0.0050516198 0.039967827 -0.0050516198 0.039967827 -0.0050516198 0.039967827 -0.0050516198 0.039967827
4300000000 0.02705323 0.030221039 0.02705323 0.030221039 0.02705323 0.030221039 0.02705323 0.030221039
4310000000 0.040647842 -0.00062347949 0.040647842 -0.00062347949 0.040647842 -0.00062347949 0.040647842 -0.00062347949
4320000000 0.026467854 -0.031223949 0.026467854 -0.031223949 0.026467854 -0.031223949 0.026467854 -0.031223949
4330000000 -0.0063415095 -0.040801685 -0.0063415095 -0.040801685 -0.0063415095 -0.040801685 -0.0063415095 -0.040801685
4340000000 -0.03522582 -0.021915769 -0.03522582 -0.021915769 -0.03522582 -0.021915769 -0.03522582 -0.021915769
4350000000 -0.039611805 0.01249335 -0.039611805 0.01249335 -0.039611805 0.01249335 -0.039611805 0.01249335
4360000000 -0.016587302 0.037843693 -0.016587302 0.037843693 -0.016587302 0.037843693 -0.016587302 0.037843693
4370000000 0.017674113 0.037640471 0.017674113 0.037640471 0.017674113 0.037640471 0.017674113 0.037640471
4380000000 0.040138241 0.011490418 0.040138241 0.011490418 0.040138241 0.011490418 0.040138241 0.011490418
4390000000 0.035242975 -0.02300391 0.035242975 -0.02300391 0.035242975 -0.02300391 0.035242975 -0.02300391
4400000000 0.0055531911 -0.04181762 0.0055531911 -0.04181762 0.0055531911 -0.04181762 0.0055531911 -0.04181762
4410000000 -0.028050145 -0.031695895 -0.028050145 -0.031695895 -0.028050145 -0.031695895 -0.028050145 -0.031695895
4420000000 -0.042087916 0.00068051578 -0.042087916 0.00068051578 -0.042087916 0.00068051578 -0.042087916 0.00068051578
4430000000 -0.027542561 0.031980921 -0.027542561 0.031980921 -0.027542561 0.031980921 -0.027542561 0.031980921
4440000000 0.0063806139 0.041828632 0.0063806139 0.041828632 0.0063806139 0.041828632 0.0063806139 0.041828632
4450000000 0.036060374 0.022947524 0.036060374 0.022947524 0.036060374 0.022947524 0.036060374 0.022947524
4460000000 0.040682487 -0.012757326 0.040682487 -0.012757326 0.040682487 -0.012757326 0.040682487 -0.012757326
4470000000 0.016993934 -0.038892176 0.016993934 -0.038892176 0.016993934 -0.038892176 0.016993934 -0.038892176
4480000000 -0.018430194 -0.037862841 -0.018430194 -0.037862841 -0.018430194 -0.037862841 -0.018430194 -0.037862841
4490000000 -0.040097788 -0.01105985 -0.040097788 -0.01105985 -0.040097788 -0.01105985 -0.040097788 -0.01105985
4500000000 -0.034526162 0.022970878 -0.034526162 0.022970878 -0.034526162 0.022970878 -0.034526162 0.022970878
4510000000 -0.0057376553 0.040681127 -0.0057376553 0.040681127 -0.0057376553 0.040681127 -0.0057376553 0.040681127
4520000000 0.02708675 0.031147765 0.02708675 0.031147765 0.02708675 0.031147765 0.02708675 0.031147765
4530000000 0.040748004 7.0916016e-005 0.040748004 7.0916016e-005 0.040748004 7.0916016e-005 0.040748004 7.0916016e-005
4540000000 0.02660872 -0.030740248 0.02660872 -0.030740248 0.02660872 -0.030740248 0.02660872 -0.030740248
4550000000 -0.0049705175 -0.039390113 -0.0049705175 -0.039390113 -0.0049705175 -0.039390113 -0.0049705175 -0.039390113
4560000000 -0.032804694 -0.022382539 -0.032804694 -0.022382539 -0.032804694 -0.022382539 -0.032804694 -0.022382539
4570000000 -0.038254615 0.0094109606 -0.038254615 0.0094109606 -0.038254615 0.0094109606 -0.038254615 0.0094109606
4580000000 -0.018279226 0.034735113 -0.018279226 0.034735113 -0.018279226 0.034735113 -0.018279226 0.034735113
4590000000 0.013588367 0.036505654 0.013588367 0.036505654 0.013588367 0.036505654 0.013588367 0.036505654
4600000000 0.036193494 0.0141286 0.036193494 0.0141286 0.036193494 0.0141286 0.036193494 0.0141286
4610000000 0.03450454 -0.017191896 0.03450454 -0.017191896 0.03450454 -0.017191896 0.03450454 -0.017191896
4620000000 0.010431824 -0.037305489 0.010431824 -0.037305489 0.010431824 -0.037305489 0.010431824 -0.037305489
4630000000 -0.020505082 -0.033009544 -0.020505082 -0.033009544 -0.020505082 -0.033009544 -0.020505082 -0.033009544
4640000000 -0.038963817 -0.0065541393 -0.038963817 -0.0065541393 -0.038963817 -0.0065541393 -0.038963817 -0.0065541393
4650000000 -0.031103417 0.024450598 -0.031103417 0.024450598 -0.031103417 0.024450598 -0.031103417 0.024450598
4660000000 -0.0023233776 0.040339351 -0.0023233776 0.040339351 -0.0023233776 0.040339351 -0.0023233776 0.040339351
4670000000 0.028886514 0.028487109 0.028886514 0.028487109 0.028886514 0.028487109 0.028886514 0.028487109
4680000000 0.040835302 -0.0027181238 0.040835302 -0.0027181238 0.040835302 -0.0027181238 0.040835302 -0.0027181238
4690000000 0.025305422 -0.032407306 0.025305422 -0.032407306 0.025305422 -0.032407306 0.025305422 -0.032407306
4700000000 -0.0078300415 -0.041438855 -0.0078300415 -0.041438855 -0.0078300415 -0.041438855 -0.0078300415 -0.041438855
4710000000 -0.036375493 -0.021445319 -0.036375493 -0.021445319 -0.036375493 -0.021445319 -0.036375493 -0.021445319
4720000000 -0.040790185 0.013779757 -0.040790185 0.013779757 -0.040790185 0.013779757 -0.040790185 0.013779757
4730000000 -0.016364237 0.039738588 -0.016364237 0.039738588 -0.016364237 0.039738588 -0.016364237 0.039738588
4740000000 0.019409506 0.038774204 0.019409506 0.038774204 0.019409506 0.038774204 0.019409506 0.038774204
4750000000 0.041734807 0.01070279 0.041734807 0.01070279 0.041734807 0.01070279 0.041734807 0.01070279
4760000000 0.035826135 -0.024222163 0.035826135 -0.024222163 0.035826135 -0.024222163 0.035826135 -0.024222163
4770000000 0.005392238 -0.043027479 0.005392238 -0.043027479 0.005392238 -0.043027479 0.005392238 -0.043027479
4780000000 -0.028855558 -0.032679744 -0.028855558 -0.032679744 -0.028855558 -0.032679744 -0.028855558 -0.032679744
4790000000 -0.043595228 0.00031323067 -0.043595228 0.00031323067 -0.043595228 0.00031323067 -0.043595228 0.00031323067
4800000000 -0.02860361 0.033050705 -0.02860361 0.033050705 -0.02860361 0.033050705 -0.02860361 0.033050705
4810000000 0.0057744216 0.043109182 0.0057744216 0.043109182 0.0057744216 0.043109182 0.0057744216 0.043109182
4820000000 0.036562048 0.024471054 0.036562048 0.024471054 0.036562048 0.024471054 0.036562048 0.024471054
4830000000 0.042254537 -0.01117151 0.042254537 -0.01117151 0.042254537 -0.01117151 0.042254537 -0.01117151
4840000000 0.019861655 -0.03943298 0.019861655 -0.03943298 0.019861655 -0.03943298 0.019861655 -0.03943298
4850000000 -0.016526343 -0.041060433 -0.016526343 -0.041060433 -0.016526343 -0.041060433 -0.016526343 -0.041060433
4860000000 -0.042148605 -0.014604744 -0.042148605 -0.014604744 -0.042148605 -0.014604744 -0.042148605 -0.014604744
4870000000 -0.038637526 0.02199591 -0.038637526 0.02199591 -0.038637526 0.02199591 -0.038637526 0.02199591
4880000000 -0.0091036214 0.043533079 -0.0091036214 0.043533079 -0.0091036214 0.043533079 -0.0091036214 0.043533079
4890000000 0.02667533 0.035585187 0.02667533 0.035585187 0.02667533 0.035585187 0.02667533 0.035585187
4900000000 0.044547237 0.0039811558 0.044547237 0.0039811558 0.044547237 0.0039811558 0.044547237 0.0039811558
4910000000 0.03240484 -0.031229904 0.03240484 -0.031229904 0.03240484 -0.031229904 0.03240484 -0.031229904
4920000000 -0.0020240762 -0.045228019 -0.0020240762 -0.045228019 -0.0020240762 -0.045228019 -0.0020240762 -0.045228019
4930000000 -0.035233475 -0.028086949 -0.035233475 -0.028086949 -0.035233475 -0.028086949 -0.035233475 -0.028086949
4940000000 -0.0445701 0.0077606891 -0.0445701 0.0077606891 -0.0445701 0.0077606891 -0.0445701 0.0077606891
4950000000 -0.023720732 0.038526263 -0.023720732 0.038526263 -0.023720732 0.038526263 -0.023720732 0.038526263
4960000000 0.013359079 0.04365344 0.013359079 0.04365344 0.013359079 0.04365344 0.013359079 0.04365344
4970000000 0.041641623 0.018824566 0.041641623 0.018824566 0.041641623 0.018824566 0.041641623 0.018824566
4980000000 0.041801874 -0.019004498 0.041801874 -0.019004498 0.041801874 -0.019004498 0.041801874 -0.019004498
4990000000 0.013361752 -0.04414634 0.013361752 -0.04414634 0.013361752 -0.04414634 0.013361752 -0.04414634
5000000000 -0.024483193 -0.039062623 -0.024483193 -0.039062623 -0.024483193 -0.039062623 -0.024483193 -0.039062623
5010000000 -0.045485131 -0.0075250072 -0.045485131 -0.0075250072 -0.045485131 -0.0075250072 -0.045485131 -0.0075250072
5020000000 -0.035722658 0.029283985 -0.035722658 0.029283985 -0.035722658 0.029283985 -0.035722658 0.029283985
5030000000 -0.0017720523 0.046225585 -0.0017720523 0.046225585 -0.0017720523 0.046225585 -0.0017720523 0.046225585
5040000000 0.033839125 0.03207989 0.033839125 0.03207989 0.033839125 0.03207989 0.033839125 0.03207989
5050000000 0.046337951 -0.0044140927 0.046337951 -0.0044140927 0.046337951 -0.0044140927 0.046337951 -0.0044140927
5060000000 0.027311888 -0.037860356 0.027311888 -0.037860356 0.027311888 -0.037860356 0.027311888 -0.037860356
5070000000 -0.010506547 -0.045361295 -0.010506547 -0.045361295 -0.010506547 -0.045361295 -0.010506547 -0.045361295
5080000000 -0.040888559 -0.022061668 -0.040888559 -0.022061668 -0.040888559 -0.022061668 -0.040888559 -0.022061668
5090000000 -0.043626618 0.015990131 -0.043626618 0.015990131 -0.043626618 0.015990131 -0.043626618 0.015990131
5100000000 -0.016823333 0.043407544 -0.016823333 0.043407544 -0.016823333 0.043407544 -0.016823333 0.043407544
5110000000 0.021406852 0.04122762 0.021406852 0.04122762 0.021406852 0.04122762 0.021406852 0.04122762
5120000000 0.045240585 0.011200585 0.045240585 0.011200585 0.045240585 0.011200585 0.045240585 0.011200585
5130000000 0.038058914 -0.026539519 0.038058914 -0.026539519 0.038058914 -0.026539519 0.038058914 -0.026539519
5140000000 0.00532282 -0.046110082 0.00532282 -0.046110082 0.00532282 -0.046110082 0.00532282 -0.046110082
5150000000 -0.030826645 -0.034526154 -0.030826645 -0.034526154 -0.030826645 -0.034526154 -0.030826645 -0.034526154
5160000000 -0.04642624 0.00032077156 -0.04642624 0.00032077156 -0.04642624 0.00032077156 -0.04642624 0.00032077156
5170000000 -0.030401869 0.034920748 -0.030401869 0.034920748 -0.030401869 0.034920748 -0.030401869 0.034920748
5180000000 0.0060494705 0.046162639 0.0060494705 0.046162639 0.0060494705 0.046162639 0.0060494705 0.046162639
5190000000 0.038682051 0.025700537 0.038682051 0.025700537 0.038682051 0.025700537 0.038682051 0.025700537
5200000000 0.044763584 -0.012031076 0.044763584 -0.012031076 0.044763584 -0.012031076 0.044763584 -0.012031076
5210000000 0.020526083 -0.041183438 0.020526083 -0.041183438 0.020526083 -0.041183438 0.020526083 -0.041183438
5220000000 -0.017054204 -0.042840037 -0.017054204 -0.042840037 -0.017054204 -0.042840037 -0.017054204 -0.042840037
5230000000 -0.043403011 -0.015508 -0.043403011 -0.015508 -0.043403011 -0.015508 -0.043403011 -0.015508
5240000000 -0.040532731 0.02225264 -0.040532731 0.02225264 -0.040532731 0.02225264 -0.040532731 0.02225264
5250000000 -0.0099764587 0.04495915 -0.0099764587 0.04495915 -0.0099764587 0.04495915 -0.0099764587 0.04495915
5260000000 0.027103275 0.03727052 0.027103275 0.03727052 0.027103275 0.03727052 0.027103275 0.03727052
5270000000 0.045490451 0.004359155 0.045490451 0.004359155 0.045490451 0.004359155 0.045490451 0.004359155
5280000000 0.033735815 -0.030989166 0.033735815 -0.030989166 0.033735815 -0.030989166 0.033735815 -0.030989166
5290000000 -0.00086982705 -0.045663651 -0.00086982705 -0.045663651 -0.00086982705 -0.045663651 -0.00086982705 -0.045663651
5300000000 -0.034651238 -0.029925212 -0.034651238 -0.029925212 -0.034651238 -0.029925212 -0.034651238 -0.029925212
5310000000 -0.045582738 0.0062097036 -0.045582738 0.0062097036 -0.045582738 0.0062097036 -0.045582738 0.0062097036
5320000000 -0.02551323 0.038238112 -0.02551323 0.038238112 -0.02551323 0.038238112 -0.02551323 0.038238112
5330000000 0.011727783 0.04430303 0.011727783 0.04430303 0.011727783 0.04430303 0.011727783 0.04430303
5340000000 0.040862739 0.020861516 0.040862739 0.020861516 0.040862739 0.020861516 0.040862739 0.020861516
5350000000 0.042792834 -0.016491288 0.042792834 -0.016491288 0.042792834 -0.016491288 0.042792834 -0.016491288
5360000000 0.01631457 -0.043421123 0.01631457 -0.043421123 0.01631457 -0.043421123 0.01631457 -0.043421123
5370000000 -0.021634188 -0.041010037 -0.021634188 -0.041010037 -0.021634188 -0.041010037 -0.021634188 -0.041010037
5380000000 -0.045597829 -0.01090642 -0.045597829 -0.01090642 -0.045597829 -0.01090642 -0.045597829 -0.01090642
5390000000 -0.038185466 0.026824867 -0.038185466 0.026824867 -0.038185466 0.026824867 -0.038185466 0.026824867
5400000000 -0.0053443029 0.046652369 -0.0053443029 0.046652369 -0.0053443029 0.046652369 -0.0053443029 0.046652369
5410000000 0.031423792 0.034947138 0.031423792 0.034947138 0.031423792 0.034947138 0.031423792 0.034947138
5420000000 0.04742074 -0.00031869163 0.04742074 -0.00031869163 0.04742074 -0.00031869163 0.04742074 -0.00031869163
5430000000 0.030997256 -0.035907835 0.030997256 -0.035907835 0.030997256 -0.035907835 0.030997256 -0.035907835
5440000000 -0.0062255543 -0.047523897 -0.0062255543 -0.047523897 -0.0062255543 -0.047523897 -0.0062255543 -0.047523897
5450000000 -0.040075809 -0.026339967 -0.040075809 -0.026339967 -0.040075809 -0.026339967 -0.040075809 -0.026339967
5460000000 -0.046434652 0.012568311 -0.046434652 0.012568311 -0.046434652 0.012568311 -0.046434652 0.012568311
5470000000 -0.021000264 0.043102499 -0.021000264 0.043102499 -0.021000264 0.043102499 -0.021000264 0.043102499
5480000000 0.018357938 0.044590179 0.018357938 0.044590179 0.018357938 0.044590179 0.018357938 0.044590179
5490000000 0.04594082 0.015425502 0.04594082 0.015425502 0.04594082 0.015425502 0.04594082 0.015425502
5500000000 0.041764047 -0.024290361 0.041764047 -0.024290361 0.041764047 -0.024290361 0.041764047 -0.024290361
5510000000 0.0091015566 -0.047449335 0.0091015566 -0.047449335 0.0091015566 -0.047449335 0.0091015566 -0.047449335
5520000000 -0.029469332 -0.037987586 -0.029469332 -0.037987586 -0.029469332 -0.037987586 -0.029469332 -0.037987586
5530000000 -0.048011377 -0.0028822955 -0.048011377 -0.0028822955 -0.048011377 -0.0028822955 -0.048011377 -0.0028822955
5540000000 -0.033665698 0.033894338 -0.033665698 0.033894338 -0.033665698 0.033894338 -0.033665698 0.033894338
5550000000 0.0030639647 0.047670022 0.0030639647 0.047670022 0.0030639647 0.047670022 0.0030639647 0.047670022
5560000000 0.037849426 0.029109364 0.037849426 0.029109364 0.037849426 0.029109364 0.037849426 0.029109364
5570000000 0.046625096 -0.0091879014 0.046625096 -0.0091879014 0.046625096 -0.0091879014 0.046625096 -0.0091879014
5580000000 0.023730639 -0.040991161 0.023730639 -0.040991161 0.023730639 -0.040991161 0.023730639 -0.040991161
5590000000 -0.014751762 -0.044491041 -0.014751762 -0.044491041 -0.014751762 -0.044491041 -0.014751762 -0.044491041
5600000000 -0.043014616 -0.018577229 -0.043014616 -0.018577229 -0.043014616 -0.018577229 -0.043014616 -0.018577229
5610000000 -0.042299215 0.020084631 -0.042299215 0.020084631 -0.042299215 0.020084631 -0.042299215 0.020084631
5620000000 -0.012828963 0.044679172 -0.012828963 0.044679172 -0.012828963 0.044679172 -0.012828963 0.044679172
5630000000 0.024754839 0.038968649 0.024754839 0.038968649 0.024754839 0.038968649 0.024754839 0.038968649
5640000000 0.04543969 0.0074665868 0.04543969 0.0074665868 0.04543969 0.0074665868 0.04543969 0.0074665868
5650000000 0.035525087 -0.029087007 0.035525087 -0.029087007 0.035525087 -0.029087007 0.035525087 -0.029087007
5660000000 0.0018898929 -0.045415211 0.0018898929 -0.045415211 0.0018898929 -0.045415211 0.0018898929 -0.045415211
5670000000 -0.032322701 -0.031684011 -0.032322701 -0.031684011 -0.032322701 -0.031684011 -0.032322701 -0.031684011
5680000000 -0.045210641 0.0030143778 -0.045210641 0.0030143778 -0.045210641 0.0030143778 -0.045210641 0.0030143778
5690000000 -0.027738312 0.035814442 -0.027738312 0.035814442 -0.027738312 0.035814442 -0.027738312 0.035814442
5700000000 0.0082436921 0.044322193 0.0082436921 0.044322193 0.0082436921 0.044322193 0.0082436921 0.044322193
5710000000 0.038518552 0.023450883 0.038518552 0.023450883 0.038518552 0.023450883 0.038518552 0.023450883
5720000000 0.042950377 -0.013163825 0.042950377 -0.013163825 0.042950377 -0.013163825 0.042950377 -0.013163825
5730000000 0.018974593 -0.040828843 0.018974593 -0.040828843 0.018974593 -0.040828843 0.018974593 -0.040828843
5740000000 -0.017921351 -0.041325863 -0.017921351 -0.041325863 -0.017921351 -0.041325863 -0.017921351 -0.041325863
5750000000 -0.042648304 -0.01414301 -0.042648304 -0.01414301 -0.042648304 -0.01414301 -0.042648304 -0.01414301
5760000000 -0.039280239 0.022231407 -0.039280239 0.022231407 -0.039280239 0.022231407 -0.039280239 0.022231407
