!Keysight Technologies,N5227A,US51270384,A.10.49.03
!Date: Wednesday, March 04, 2020 16:34:26
!Correction: S11(Full 4 Port(1,2,3,4)) 
!S12(Full 4 Port(1,2,3,4)) 
!S13(Full 4 Port(1,2,3,4)) 
!S14(Full 4 Port(1,2,3,4)) 
!S21(Full 4 Port(1,2,3,4)) 
!S22(Full 4 Port(1,2,3,4)) 
!S23(Full 4 Port(1,2,3,4)) 
!S24(Full 4 Port(1,2,3,4)) 
!S31(Full 4 Port(1,2,3,4)) 
!S32(Full 4 Port(1,2,3,4)) 
!S33(Full 4 Port(1,2,3,4)) 
!S34(Full 4 Port(1,2,3,4)) 
!S41(Full 4 Port(1,2,3,4)) 
!S42(Full 4 Port(1,2,3,4)) 
!S43(Full 4 Port(1,2,3,4)) 
!S44(Full 4 Port(1,2,3,4)) 
!S4P File: Measurements: <S11,S12,S13,S14>,
!<S21,S22,S23,S24>,
!<S31,S32,S33,S34>,
!<S41,S42,S43,S44>:
# Hz S  RI   R 50
4000000000 0.68506211 -0.49832749 -0.0089235818 -0.037100583 0.016705586 -0.017361693 0.016186828 0.0041093752
-0.0089815743 -0.037161633 0.60511982 -0.56263018 -0.0047339741 -0.048912793 0.017815264 -0.016452201
0.016742345 -0.017348191 -0.0047220229 -0.048908267 0.5253638 -0.63035357 -0.0092432303 -0.034217134
0.016217597 0.0042464286 0.01766374 -0.016601764 -0.0091201104 -0.034336243 0.74159497 -0.4221859
4010000000 0.62246341 -0.55375141 -0.014320631 -0.038324412 0.015520007 -0.020770511 0.017992439 0.00151413
-0.014341685 -0.038412746 0.52642959 -0.6171298 -0.012637451 -0.052703112 0.017080944 -0.019971732
0.015565244 -0.020784952 -0.012627386 -0.052646175 0.43939999 -0.67420065 -0.014220625 -0.035552587
0.01811875 0.0016729769 0.01682811 -0.019915117 -0.014152083 -0.035753381 0.68820441 -0.48115951
4020000000 0.55069774 -0.60601979 -0.019808019 -0.038875222 0.013393193 -0.024639232 0.018767307 -0.0015307441
-0.019867444 -0.038929339 0.43385252 -0.66533512 -0.021526767 -0.054164406 0.014815685 -0.024432506
0.013407222 -0.024660069 -0.021457462 -0.054209273 0.34212402 -0.71011388 -0.019308861 -0.035373576
0.018928226 -0.0014532437 0.014607402 -0.024316704 -0.019255472 -0.035536289 0.62477791 -0.53802866
4030000000 0.46725827 -0.653126 -0.025966162 -0.038814209 0.0099166743 -0.028443424 0.019163445 -0.0044123665
-0.026030585 -0.038917668 0.33090994 -0.70214427 -0.031966757 -0.054436006 0.011632976 -0.028865688
0.0099561075 -0.028471803 -0.031933788 -0.054441422 0.23481093 -0.7341525 -0.024956072 -0.035071857
0.019306678 -0.0044088457 0.011453638 -0.028634319 -0.025059395 -0.035324164 0.55041695 -0.59143299
4040000000 0.37313461 -0.69367945 -0.033440884 -0.036576342 0.0054830289 -0.031480324 0.019801043 -0.0075701741
-0.033429187 -0.036535978 0.21697457 -0.72774559 -0.043032564 -0.052225552 0.0066912235 -0.031991571
0.0055031609 -0.031551279 -0.04298386 -0.052214887 0.11814819 -0.74424297 -0.031119658 -0.033947237
0.019921064 -0.0075709145 0.0065065674 -0.031725962 -0.031321459 -0.034057681 0.46448749 -0.64049858
4050000000 0.26687571 -0.72203183 -0.040060703 -0.03356795 0.00041814896 -0.033519059 0.018787622 -0.012273405
-0.040124808 -0.033602994 0.093418099 -0.73572248 -0.05425464 -0.046981193 0.00096822705 -0.034885477
0.00046046538 -0.033566516 -0.05426567 -0.047029007 -0.0053276662 -0.73743445 -0.037688911 -0.03059577
0.019007895 -0.0123219 0.0011297428 -0.034488834 -0.037946999 -0.030615577 0.3662264 -0.6787647
4060000000 0.15323706 -0.73680818 -0.046922311 -0.028295584 -0.0062598353 -0.035531506 0.016305078 -0.015017472
-0.046917312 -0.028257452 -0.035065304 -0.72549182 -0.065371081 -0.038084503 -0.0057011642 -0.036136724
-0.0062314547 -0.035595901 -0.065353826 -0.038119309 -0.13121054 -0.7093786 -0.043134075 -0.026048226
0.016589608 -0.015204004 -0.0054260148 -0.03588026 -0.043442763 -0.026015678 0.25840193 -0.70823801
4070000000 0.03154448 -0.73535067 -0.052363649 -0.021217186 -0.01395614 -0.034749623 0.015388399 -0.018516244
-0.052407708 -0.02124563 -0.16670056 -0.69315618 -0.073160477 -0.026527064 -0.01369713 -0.035586271
-0.013961761 -0.034833059 -0.073126875 -0.026606085 -0.25504079 -0.66073722 -0.048796531 -0.020432003
0.015427936 -0.018912241 -0.013235698 -0.035523728 -0.04900492 -0.020060005 0.13927399 -0.72102153
4080000000 -0.093337886 -0.71521127 -0.056388084 -0.013630255 -0.021084875 -0.031405076 0.011267005 -0.022133697
-0.056490842 -0.013612933 -0.29355544 -0.63647801 -0.078291826 -0.013359088 -0.020014772 -0.032632124
-0.021106208 -0.031470936 -0.07826066 -0.013459984 -0.3731842 -0.59027547 -0.053226538 -0.013391268
0.011186 -0.022436248 -0.019584579 -0.032664001 -0.053228963 -0.012971266 0.013036308 -0.71639371
4090000000 -0.21880637 -0.67350101 -0.059819371 -0.0044839471 -0.025841687 -0.02707837 0.0071633141 -0.024557516
-0.059881471 -0.0044667711 -0.40803868 -0.55989367 -0.081154607 0.0017663382 -0.02725908 -0.028110841
-0.025895754 -0.027156165 -0.081176005 0.0017293408 -0.47761604 -0.50067103 -0.056642029 -0.0043043722
0.0069552376 -0.024884675 -0.026888473 -0.02844828 -0.056406014 -0.0039706547 -0.11513668 -0.68993163
4100000000 -0.33786806 -0.61054039 -0.05986651 0.0061321198 -0.030927658 -0.022296058 0.0021847251 -0.025914615
-0.059886497 0.0061762081 -0.51122653 -0.4657245 -0.078009166 0.01709432 -0.03216536 -0.021353468
-0.030974772 -0.022365529 -0.078104816 0.017044401 -0.56778157 -0.39374617 -0.057205424 0.0053158966
0.0018798201 -0.026124166 -0.031995513 -0.021864697 -0.056905627 0.0055543734 -0.24184968 -0.64216167
4110000000 -0.44652808 -0.52825135 -0.057875816 0.015438175 -0.035384595 -0.015312725 -0.0029931078 -0.025820144
-0.057882749 0.015452776 -0.59547043 -0.35491338 -0.072346531 0.030480292 -0.03440896 -0.013688753
-0.035455357 -0.015358976 -0.072385348 0.030412745 -0.63512349 -0.27416646 -0.055543508 0.014323277
-0.0034630608 -0.025780067 -0.034642641 -0.014250903 -0.055073526 0.014331688 -0.36267686 -0.57110602
4120000000 -0.54101551 -0.42904752 -0.054019131 0.024588514 -0.03595043 -0.0073023159 -0.0078957463 -0.024632407
-0.054055143 0.024611879 -0.65681607 -0.23410428 -0.063775182 0.041497126 -0.035198979 -0.0074462718
-0.035983589 -0.0073165204 -0.063822187 0.041515332 -0.68227839 -0.14937998 -0.051589999 0.024030684
-0.0081671271 -0.024358772 -0.035536502 -0.0078008911 -0.051285252 0.023740791 -0.46926421 -0.4799386
4130000000 -0.61674327 -0.31530169 -0.047607031 0.032163423 -0.03527442 -0.00048225239 -0.012518274 -0.022446727
-0.047659818 0.032162033 -0.69825077 -0.11081979 -0.053251706 0.050146267 -0.034900174 0.00039902498
-0.035313293 -0.00048813492 -0.053304609 0.050117791 -0.70670277 -0.022598743 -0.04578333 0.030686164
-0.012622584 -0.022185499 -0.035338536 0.00033633475 -0.045697592 0.030392753 -0.55811793 -0.37193784
4140000000 -0.67117363 -0.19389108 -0.040830474 0.037755575 -0.032739032 0.0053645321 -0.017097238 -0.018539952
-0.040849656 0.037676394 -0.71861976 0.013168035 -0.041860119 0.054897495 -0.031034924 0.0061660465
-0.032784175 0.0053765662 -0.041939676 0.054877169 -0.71262515 0.10171168 -0.038988467 0.037231501
-0.017105307 -0.018195216 -0.031435233 0.0062655373 -0.038972531 0.036947571 -0.62638491 -0.25344071
4150000000 -0.70475036 -0.070184276 -0.032773092 0.041949186 -0.029888092 0.010423773 -0.01888925 -0.013811422
-0.032821894 0.041983578 -0.72093701 0.13192464 -0.03107303 0.057303742 -0.028056739 0.010464698
-0.029901696 0.010400554 -0.031129248 0.057318773 -0.69918883 0.21914497 -0.030626446 0.040441144
-0.018660741 -0.013499406 -0.028276445 0.010747876 -0.030761421 0.040159006 -0.67418635 -0.12629046
4160000000 -0.71841621 0.053174678 -0.025532005 0.043529958 -0.02603936 0.014687246 -0.020148156 -0.010042763
-0.025573716 0.043556288 -0.7065298 0.24421209 -0.020159928 0.056990206 -0.023860743 0.014416646
-0.026069267 0.014666533 -0.020188401 0.05705804 -0.67180896 0.32666433 -0.0234346 0.041870084
-0.019904979 -0.0098767225 -0.024023052 0.014775943 -0.023632254 0.041649051 -0.69715405 0.00099770923
4170000000 -0.71390963 0.17149961 -0.018214306 0.044281319 -0.0210624 0.016843263 -0.021019354 -0.005348912
-0.018269405 0.044339672 -0.67907625 0.3462542 -0.011668005 0.05547706 -0.018801998 0.016359864
-0.0211093 0.016836721 -0.011658606 0.055490606 -0.63364029 0.42374653 -0.016471142 0.041729324
-0.02070513 -0.0053466517 -0.018697957 0.016616391 -0.016664254 0.041650601 -0.70098585 0.12378429
4180000000 -0.69405735 0.28048551 -0.010867869 0.043603148 -0.017395671 0.018177923 -0.019363603 -0.0011882625
-0.010925438 0.043675166 -0.64211172 0.437457 -0.0034351002 0.051960636 -0.015612529 0.016644668
-0.017413208 0.018181287 -0.00341643 0.05201276 -0.58568168 0.50989723 -0.010550428 0.041382376
-0.019091444 -0.0013351655 -0.015542259 0.016936496 -0.010784204 0.041388527 -0.68824953 0.24039181
4190000000 -0.66186762 0.38089645 -0.0056279656 0.040875182 -0.013133128 0.018987201 -0.018178888 0.001386871
-0.0056233159 0.040957488 -0.59741294 0.51847667 0.0024382602 0.047750242 -0.01147957 0.017857708
-0.013176967 0.018974122 0.0024727834 0.047833841 -0.53217596 0.58456695 -0.0049219644 0.038964149
-0.018051984 0.0012153434 -0.011252472 0.018060997 -0.0051233 0.039097667 -0.66007692 0.34760737
4200000000 -0.61995393 0.4689025 -0.0011210268 0.039116807 -0.0099717267 0.018822253 -0.016340587 0.0047662901
-0.0011901684 0.039178144 -0.54812622 0.58800262 0.007251014 0.043905508 -0.0082366876 0.016636757
-0.010021989 0.018815026 0.0072512813 0.043924704 -0.47439569 0.64724374 -0.00045430067 0.036618859
-0.016243907 0.0046111755 -0.0080089457 0.016688021 -0.00057412655 0.03674547 -0.62079275 0.44293475
4210000000 -0.57237881 0.54705572 0.0035433525 0.036395781 -0.0070373835 0.01871714 -0.013602859 0.0062022367
0.0035278257 0.036466625 -0.49644384 0.64906943 0.0113566 0.038771812 -0.0059024724 0.01572234
-0.0070895506 0.018741228 0.011312779 0.038814109 -0.41586706 0.70049179 0.0029552255 0.033656411
-0.013575247 0.0059531559 -0.0056888089 0.015714237 0.0028963324 0.033897366 -0.57251585 0.52789325
4220000000 -0.51930046 0.61430603 0.0062979329 0.033166073 -0.0037056548 0.017729498 -0.012076261 0.0072882092
0.006275285 0.033257235 -0.44184121 0.69974148 0.013626168 0.034650136 -0.0035989364 0.015060391
-0.0037482369 0.017744701 0.013515491 0.034698777 -0.35630894 0.74472541 0.0056286845 0.031214865
-0.012177441 0.0070414473 -0.0034212514 0.014919912 0.0056684823 0.031400979 -0.51891786 0.59941405
4230000000 -0.46394375 0.67125994 0.0092510302 0.030579343 -0.0016554887 0.016176097 -0.0097946487 0.0088731162
0.0093216812 0.030700782 -0.38814944 0.74259865 0.015632093 0.030702282 -0.0023049023 0.013696417
-0.0016890554 0.016190905 0.015534033 0.030760024 -0.29752219 0.78030759 0.0082069645 0.027961221
-0.0099890772 0.0087144244 -0.002216191 0.013555791 0.0083427671 0.02813581 -0.46278059 0.66055864
4240000000 -0.40855652 0.719513 0.011444778 0.026948862 -0.00013200058 0.01497071 -0.0073952647 0.0087587871
0.011463095 0.026985327 -0.33506033 0.77862096 0.01650748 0.026381096 -0.00032553979 0.013146392
-0.00015375219 0.015027542 0.01651912 0.026451109 -0.24030037 0.8092553 0.0096405046 0.025597673
-0.0076222317 0.0087622488 -0.00030808899 0.012973299 0.0098266155 0.025625853 -0.40498963 0.71239787
4250000000 -0.35212129 0.76014698 0.012143191 0.02425772 0.0016992652 0.013964107 -0.0059685824 0.00853951
0.012233836 0.024312243 -0.28223717 0.80814564 0.017133042 0.023325147 0.00047303838 0.011324069
0.0016988683 0.014003978 0.017088251 0.023368455 -0.18458174 0.83154333 0.010820532 0.022777447
-0.0061283596 0.0085452963 0.0005142662 0.011217579 0.010954703 0.022738153 -0.34618598 0.75549787
4260000000 -0.29699117 0.79376566 0.013607323 0.021637984 0.0026878666 0.012054103 -0.0044373465 0.0085393805
0.013599704 0.02168148 -0.23113586 0.83221281 0.017435541 0.020175962 0.0010920687 0.010652521
0.0026820032 0.012115287 0.017431783 0.020208005 -0.13141808 0.84951037 0.011591228 0.020646505
-0.0046001757 0.0086768037 0.00097450608 0.010493607 0.011706506 0.020583544 -0.2888937 0.78941512
4270000000 -0.2423701 0.82055563 0.01424286 0.018639496 0.003584716 0.011124024 -0.0029473726 0.007959852
0.014230059 0.01870623 -0.18163638 0.851134 0.017103221 0.017497225 0.0022474618 0.0099097081
0.003575325 0.011197204 0.017086972 0.01755454 -0.079610921 0.86242014 0.012210821 0.018225309
-0.0029770767 0.0081292279 0.0021670766 0.0098783271 0.012252663 0.018158533 -0.23306075 0.8177048
4280000000 -0.19028793 0.84237927 0.014270182 0.01625696 0.0040426147 0.0094032316 -0.0019424533 0.0076466813
0.014305468 0.016318737 -0.13454007 0.86621773 0.017090933 0.01517961 0.0026517711 0.0083751716
0.0040299934 0.0094332509 0.017037712 0.015163754 -0.031004997 0.87118018 0.012641296 0.016608968
-0.001940237 0.0077223582 0.0025656514 0.0083016474 0.012697159 0.01647328 -0.17901421 0.83940136
4290000000 -0.13938937 0.85945487 0.014439831 0.014099293 0.0044665947 0.0083700037 -0.0011775804 0.0069870343
0.014475556 0.01410092 -0.089384653 0.87788725 0.016412226 0.012836893 0.0027889118 0.0076745446
0.0044670547 0.0084041199 0.016357876 0.012929248 0.015142449 0.87679535 0.012740524 0.014270979
-0.0011834092 0.0070395083 0.002698682 0.0076438366 0.012748259 0.014211503 -0.12693714 0.8566038
4300000000 -0.090587616 0.87224764 0.013937387 0.012039504 0.0047150794 0.007290015 -0.00052075583 0.0066390638
0.014012486 0.01210332 -0.045772899 0.88674003 0.015956003 0.011351327 0.0030802011 0.0069032335
0.0047421092 0.007331897 0.015942302 0.011314861 0.059255853 0.88024336 0.012564241 0.012710053
-0.00050111103 0.0066896691 0.0030607935 0.0069049615 0.012569958 0.01265783 -0.077142745 0.86875063
4310000000 -0.044493493 0.88103235 0.013482535 0.01036671 0.0049253544 0.0062922901 0.00034899506 0.0062652281
0.013510494 0.010400384 -0.0040001166 0.89192384 0.015452224 0.0098577216 0.0033981358 0.0060990285
0.0049494728 0.0063113212 0.015426708 0.0098631224 0.1014761 0.88041174 0.012614329 0.011742881
0.00036311449 0.0062744911 0.0033635697 0.0061576618 0.012650025 0.011649945 -0.030013964 0.87753826
4320000000 -0.00048363185 0.88749963 0.013185873 0.0089749843 0.0047946479 0.005125714 0.0009928504 0.005265831
0.013293676 0.0089531913 0.034940489 0.89541656 0.014908214 0.0082079228 0.0033664485 0.0048972974
0.0048340173 0.0051362608 0.014888192 0.0082629342 0.1412096 0.8788926 0.012907382 0.0097770579
0.00097235618 0.0053064968 0.003268006 0.0049280226 0.012876298 0.009667757 0.014937556 0.88333476
4330000000 0.04208665 0.89093983 0.012627495 0.007630311 0.004357982 0.0045772186 0.00093092036 0.0049651372
0.012642393 0.0076072905 0.072747737 0.89680278 0.014283939 0.0069775451 0.0031681301 0.0045587318
0.0043807742 0.0046097208 0.014294266 0.0070051677 0.17891115 0.87553197 0.012352938 0.0083681727
0.00093039859 0.0049782856 0.003137578 0.0046032327 0.012246193 0.0082688173 0.057920899 0.88566643
4340000000 0.082198866 0.89226729 0.011920763 0.006491717 0.004392833 0.0039782217 0.001512773 0.004535859
0.011983393 0.0064941044 0.10849138 0.89648223 0.013546413 0.0057108393 0.0029709113 0.004144121
0.0044220067 0.0039878255 0.013532856 0.0057332302 0.21508268 0.87089819 0.011726781 0.0072528431
0.0015338284 0.0045264666 0.0030135941 0.0041997568 0.011647377 0.0072477907 0.097468868 0.88615334
4350000000 0.12017044 0.89119899 0.011348089 0.0052705538 0.0044125095 0.0031622353 0.0019032509 0.004289839
0.011399857 0.0053050467 0.1430048 0.89429641 0.012888183 0.0051076165 0.0030845257 0.0035060539
0.0044379178 0.0031646232 0.012822188 0.0051105535 0.2494799 0.86434829 0.011599736 0.0064317826
0.001854673 0.0043050554 0.0030737875 0.0036043851 0.011532648 0.0064350651 0.13639966 0.88524783
4360000000 0.15692344 0.88897777 0.010595115 0.0050044442 0.0036795053 0.0027862191 0.0024782708 0.0033946803
0.01061972 0.0050111641 0.17514428 0.89110595 0.012565451 0.0039936956 0.0025701036 0.0032467567
0.0037082899 0.0027929146 0.012573916 0.0039859968 0.28205931 0.85691273 0.011226096 0.0050704638
0.0024649922 0.0034423287 0.0026305935 0.0032422936 0.011149378 0.0050799013 0.17321764 0.88126498
4370000000 0.19165887 0.8844198 0.010471884 0.0042907568 0.0038940182 0.0028993574 0.0021494157 0.0026396501
0.010536745 0.0043042256 0.20682405 0.88745004 0.011432832 0.0027479168 0.0027490896 0.0033536572
0.0038834747 0.0028985292 0.011508284 0.002775704 0.31326497 0.84856391 0.010546158 0.0042141532
0.0021647327 0.0027085964 0.0027480703 0.0034018671 0.010502272 0.004276922 0.20689005 0.87640059
4380000000 0.22491117 0.87918383 0.0098202378 0.0034807804 0.0038282364 0.0020528282 0.0019627321 0.0023609484
0.0098601514 0.0034734439 0.23727995 0.8812775 0.010272852 0.0027533781 0.0029769186 0.0026851369
0.0038522449 0.0020502633 0.010296376 0.002748532 0.34308603 0.83829898 0.0098195989 0.0036254954
0.0020245325 0.0024265582 0.0029457971 0.00270811 0.0097882142 0.0036744992 0.23949943 0.87092036
4390000000 0.25672022 0.87201017 0.0092402278 0.0027116362 0.0033405323 0.0016821183 0.0022683942 0.0020628143
0.0092488071 0.002682175 0.26559588 0.87464851 0.01032793 0.0023176752 0.002462971 0.0024640423
0.0033472544 0.0016813342 0.01036025 0.0023282601 0.37101462 0.82822168 0.0092887348 0.0029962189
0.0023359782 0.0020870222 0.0024943168 0.0024760042 0.0092982855 0.003062191 0.27108103 0.86398911
4400000000 0.28614658 0.86404407 0.0086201755 0.0026242833 0.003107961 0.0019444901 0.0019758225 0.001430897
0.0086468915 0.002611595 0.29301947 0.86752027 0.0093192346 0.0013844514 0.0023606198 0.0023900853
0.0031141732 0.0019499523 0.0093201604 0.0014100856 0.39800826 0.81726217 0.0085910512 0.0025262309
0.0020397317 0.001428065 0.0024099865 0.0023806777 0.0086256536 0.0025441383 0.30082634 0.85584259
4410000000 0.31459394 0.85585594 0.0083571104 0.0020170568 0.0037589641 0.0015637077 0.0018937187 0.0013197577
0.0083703995 0.0019920589 0.31979346 0.85951996 0.0085812453 0.0018544634 0.00241022 0.0023384483
0.0037591304 0.0015455157 0.00857348 0.0019013576 0.42392451 0.80580753 0.0082241185 0.0021117793
0.0019570698 0.0013379873 0.0024031417 0.0023433503 0.0082560806 0.0021391048 0.32872245 0.84708381
4420000000 0.3424288 0.84644443 0.0076277158 0.0018489239 0.0032013652 0.00069704436 0.0020389433 0.00096493255
0.0076356982 0.0018307774 0.34494096 0.84986132 0.0087018488 0.0017851025 0.0025662635 0.0021794115
0.0031848941 0.00067199208 0.0087066768 0.0017390811 0.44867459 0.7934761 0.0074748248 0.00171508
0.0021226453 0.00094875309 0.0025472606 0.0021252413 0.0075392048 0.00170832 0.355506 0.83781344
4430000000 0.36792982 0.83560091 0.0075223357 0.0015449177 0.0026328301 0.00073220313 0.0017268669 0.00048702044
0.0075238845 0.0015930564 0.36808547 0.84092104 0.0081900451 0.0011034828 0.0024459965 0.0017598266
0.0026203159 0.00071706629 0.0082239304 0.0011355453 0.47238779 0.78013307 0.0068092262 0.0017348779
0.0017762961 0.00043978004 0.0024741155 0.0017842804 0.0068220948 0.0017006187 0.38143343 0.82771516
4440000000 0.39235711 0.82530326 0.006930985 0.00089022977 0.002829043 0.00074727967 0.0011674246 0.00033373246
0.006915688 0.00090226682 0.39186132 0.83101034 0.0073738941 0.0012287856 0.0020250231 0.0016629096
0.0028357424 0.0007438215 0.0073514748 0.0011852075 0.4941434 0.76648861 0.0068491152 0.001600644
0.0012073019 0.00025042199 0.0020876883 0.0017014223 0.0068297158 0.0016416549 0.40584612 0.81705445
4450000000 0.41629666 0.81412625 0.0061807889 0.0010306515 0.0026386769 6.7066212e-005 0.001180707 0.0006067066
0.0061866581 0.0010379018 0.41403157 0.82010442 0.0076022153 0.0012865963 0.0022834702 0.0018872408
0.0026345747 6.3733838e-005 0.0075688381 0.0013377307 0.51578104 0.75273222 0.0059301252 0.0013688805
0.0011693414 0.00051502249 0.0023510067 0.0019391751 0.005956179 0.0014144216 0.42937782 0.8053481
4460000000 0.43880439 0.80219066 0.0059872423 0.0011329961 0.0019243931 0.00011703657 0.0012276685 0.00033997549
0.0060220053 0.0011420992 0.43499792 0.80950356 0.007434391 0.00087781739 0.0026121743 0.0017306486
0.0019239698 0.0001055044 0.0074301069 0.00088058435 0.53663307 0.73829293 0.0056970082 0.0019221756
0.0012154619 0.00026576323 0.0025950528 0.0017491928 0.0057281489 0.0018945159 0.45152158 0.79311877
4470000000 0.45987687 0.79030895 0.0057176561 0.0010417387 0.0021611729 0.00035987369 0.0008328706 0.0001963846
