!Keysight Technologies,N5227A,US51270384,A.10.49.03
!Date: Tuesday, March 27, 2018 13:03:27
!Correction: S11(Full 1 Port(1)) 
!S1P File: Measurement: S11:
# Hz S  RI   R 50
2000000000 -0.92854071 0.34672004
2010000000 -0.92046404 0.36734524
2020000000 -0.9118802 0.3881968
2030000000 -0.90275741 0.4093436
2040000000 -0.89282715 0.43063477
2050000000 -0.88193232 0.45156568
2060000000 -0.87064958 0.47199491
2070000000 -0.85899556 0.49162006
2080000000 -0.84728312 0.51060486
2090000000 -0.83570641 0.52939427
2100000000 -0.82390422 0.54803586
2110000000 -0.81170976 0.56672949
2120000000 -0.79871005 0.58521843
2130000000 -0.78511328 0.60341591
2140000000 -0.77083087 0.62097949
2150000000 -0.75628603 0.6381042
2160000000 -0.74167275 0.65477329
2170000000 -0.72707713 0.67134118
2180000000 -0.71233755 0.68783259
2190000000 -0.6972788 0.70418209
2200000000 -0.68155164 0.72020346
2210000000 -0.66527408 0.73573053
2220000000 -0.64834225 0.75042576
2230000000 -0.63107896 0.76458645
2240000000 -0.61376411 0.77833056
2250000000 -0.59625715 0.79192942
2260000000 -0.57843858 0.80564421
2270000000 -0.55989558 0.8194254
2280000000 -0.54063761 0.83301562
2290000000 -0.52057856 0.8461358
2300000000 -0.49991795 0.85861903
2310000000 -0.47892329 0.87033123
2320000000 -0.45764026 0.88158005
2330000000 -0.43611467 0.8924315
2340000000 -0.41413283 0.90309727
2350000000 -0.39134946 0.91339964
2360000000 -0.36777899 0.92333478
2370000000 -0.34339935 0.93264896
2380000000 -0.31832471 0.94146919
2390000000 -0.29285777 0.94969934
2400000000 -0.26695397 0.95738608
2410000000 -0.24075831 0.96479487
2420000000 -0.21433328 0.97144192
2430000000 -0.18758988 0.97725469
2440000000 -0.16044755 0.98188055
2450000000 -0.13319214 0.98558521
2460000000 -0.10598481 0.98828846
2470000000 -0.078727089 0.99023736
2480000000 -0.05132392 0.99187142
2490000000 -0.023656048 0.99291104
2500000000 0.0044458308 0.99348277
2510000000 0.032778073 0.99329084
2520000000 0.06115444 0.99235946
2530000000 0.089400604 0.99033028
2540000000 0.11730506 0.98738241
2550000000 0.1448274 0.983518
2560000000 0.17195699 0.9787752
2570000000 0.1988807 0.97332019
2580000000 0.2257517 0.96693665
2590000000 0.2526606 0.95978999
2600000000 0.27980363 0.95177883
2610000000 0.30703855 0.94311643
2620000000 0.33455905 0.93387592
2630000000 0.3624396 0.92375356
2640000000 0.39049196 0.91257429
2650000000 0.41840532 0.90013826
2660000000 0.44594377 0.8863188
2670000000 0.47284117 0.87122971
2680000000 0.49898359 0.85514176
2690000000 0.52477342 0.83821839
2700000000 0.55065948 0.82054192
2710000000 0.57710892 0.80177903
2720000000 0.60424614 0.7817986
2730000000 0.63167024 0.75986302
2740000000 0.65903425 0.73597437
2750000000 0.68537462 0.71043926
2760000000 0.71042877 0.68385696
2770000000 0.73448569 0.65672696
2780000000 0.75769675 0.62917024
2790000000 0.78056961 0.60066175
2800000000 0.80305839 0.57075971
2810000000 0.82504654 0.53910959
2820000000 0.84578079 0.50536454
2830000000 0.86497468 0.46992612
2840000000 0.88258994 0.43359655
2850000000 0.89872587 0.39674243
2860000000 0.91390991 0.35957518
2870000000 0.92821413 0.32175699
2880000000 0.94177866 0.28286341
2890000000 0.95373595 0.24276203
2900000000 0.96357441 0.20133576
2910000000 0.97106594 0.15891461
2920000000 0.97585613 0.11601573
2930000000 0.97855878 0.072911277
2940000000 0.97981995 0.029583737
2950000000 0.98002833 -0.01490173
2960000000 0.9786579 -0.060930602
2970000000 0.97463137 -0.10869799
2980000000 0.96789855 -0.1574499
2990000000 0.9578169 -0.20693995
3000000000 0.94455338 -0.25597385
3010000000 0.92814749 -0.30506134
3020000000 0.90842569 -0.35399783
3030000000 0.88531864 -0.40304175
3040000000 0.85866922 -0.45240518
3050000000 0.82773292 -0.50195742
3060000000 0.79303479 -0.55124938
3070000000 0.75337398 -0.60224921
3080000000 0.70657241 -0.6521731
3090000000 0.65207559 -0.69934392
3100000000 0.5919894 -0.7406956
3110000000 0.52873635 -0.77793473
3120000000 0.46041137 -0.81266218
3130000000 0.38456926 -0.84240252
3140000000 0.29727003 -0.86322713
3150000000 0.20692261 -0.86751956
3160000000 0.11744635 -0.86038977
3170000000 0.030589599 -0.8424027
3180000000 -0.065747403 -0.81877851
3190000000 -0.16561708 -0.76644307
3200000000 -0.24575786 -0.68357158
3210000000 -0.28709882 -0.59985632
3220000000 -0.31482467 -0.52575189
3230000000 -0.33789146 -0.45936126
3240000000 -0.36364183 -0.37583059
3250000000 -0.34713811 -0.262831
3260000000 -0.28531393 -0.20246544
3270000000 -0.24026734 -0.18952158
3280000000 -0.24142824 -0.16830161
3290000000 -0.22882444 -0.12051701
3300000000 -0.18216926 -0.072514266
3310000000 -0.11570308 -0.077330045
3320000000 -0.09256532 -0.10644773
3330000000 -0.10026225 -0.11129484
3340000000 -0.088063568 -0.074181065
3350000000 -0.056852613 -0.074650675
3360000000 -0.02697904 -0.080709524
3370000000 -0.019740697 -0.11156348
3380000000 -0.0261827 -0.11298946
3390000000 -0.040572912 -0.11901522
3400000000 -0.031957436 -0.097666807
3410000000 0.010344347 -0.11293996
3420000000 0.01039373 -0.14255507
3430000000 -0.025698731 -0.1566954
3440000000 -0.034863979 -0.14095113
3450000000 -0.040782981 -0.13701676
3460000000 -0.031137567 -0.13050133
3470000000 -0.028252354 -0.15509853
3480000000 -0.061045073 -0.17270584
3490000000 -0.074188173 -0.15855324
3500000000 -0.10256299 -0.14403094
3510000000 -0.10243813 -0.11305124
3520000000 -0.1004695 -0.10258352
3530000000 -0.082309514 -0.11457615
3540000000 -0.13366212 -0.13544753
3550000000 -0.17101049 -0.087781459
3560000000 -0.1611945 -0.034351509
3570000000 -0.10968746 -0.021959279
3580000000 -0.10270378 -0.048592571
3590000000 -0.14531016 -0.049302615
3600000000 -0.16794379 -0.0070327763
3610000000 -0.13224357 0.039149936
3620000000 -0.092360564 0.04416934
3630000000 -0.071335688 0.0086502507
3640000000 -0.10292222 -0.0085610142
3650000000 -0.10781854 0.024927717
3660000000 -0.10441226 0.071697913
3670000000 -0.034614436 0.066858418
3680000000 -0.027371492 0.018473813
3690000000 -0.035779893 -0.0073516397
3700000000 -0.089370817 0.0019107028
3710000000 -0.077080667 0.052924633
3720000000 -0.021654274 0.06243825
3730000000 0.014639674 0.012038885
3740000000 -0.026965378 -0.023401538
3750000000 -0.074250482 -0.015361012
3760000000 -0.073618598 0.020802323
3770000000 -0.029175431 0.033256736
3780000000 -0.013070348 0.021568028
3790000000 -0.02169686 -0.0023501513
3800000000 -0.039951745 -0.025590854
3810000000 -0.068407573 0.01131401
3820000000 -0.067355052 0.054677188
3830000000 -0.028440753 0.045288868
3840000000 -0.010727308 0.01624668
3850000000 -0.03084291 0.0055387383
3860000000 -0.050137237 0.035341829
3870000000 -0.049678449 0.068382822
3880000000 -0.0067216214 0.075301744
3890000000 0.0099725211 0.066676706
3900000000 -0.0055028261 0.047489706
3910000000 -0.01923185 0.056043759
3920000000 0.0061180131 0.071458437
3930000000 0.021750713 0.086401932
3940000000 0.04775463 0.083366521
3950000000 0.057908248 0.067139044
3960000000 0.063585751 0.041188337
3970000000 0.032152232 0.029510401
3980000000 0.022891266 0.056735914
3990000000 0.06095805 0.066296443
4000000000 0.10526972 0.039003022
4010000000 0.093329743 -0.0047650672
4020000000 0.049604814 -0.021737935
4030000000 0.01486684 0.0066598724
4040000000 0.039773341 0.030387625
4050000000 0.067535453 0.03004729
4060000000 0.083518796 -0.028877255
4070000000 0.03388159 -0.065983489
4080000000 -0.0055418219 -0.034620665
4090000000 -0.016668579 0.019968331
4100000000 0.035728749 0.027248029
4110000000 0.049909797 -0.030634204
4120000000 0.020925639 -0.068412565
4130000000 -0.045836125 -0.052844305
4140000000 -0.044671245 0.01052608
4150000000 0.015592868 0.033084184
4160000000 0.052994065 -0.010768915
4170000000 -0.0019672918 -0.054554023
4180000000 -0.039050125 -0.041504689
4190000000 -0.057527129 0.0032849668
4200000000 -0.013886959 0.030757643
4210000000 0.030712167 0.015698966
4220000000 0.032146506 -0.036800023
4230000000 0.0034844333 -0.053847518
4240000000 -0.051444709 -0.022191472
4250000000 -0.03263323 0.02966743
4260000000 0.022023996 0.013967765
4270000000 0.046836741 -0.023070589
4280000000 0.022863692 -0.070719592
4290000000 -0.026876682 -0.053149849
4300000000 -0.024297675 -0.011330849
4310000000 0.0092973961 0.0051627806
4320000000 0.028562497 -0.019743662
4330000000 0.0075822212 -0.062082335
4340000000 -0.025071913 -0.069081225
4350000000 -0.044051655 -0.040246531
4360000000 -0.035377849 -0.011519354
4370000000 -0.017202739 -0.011220361
4380000000 -0.0060573192 -0.031597283
4390000000 -0.040907599 -0.043451194
4400000000 -0.076269157 -0.022193752
4410000000 -0.079259746 0.0055950689
4420000000 -0.056958959 0.047856662
4430000000 -0.0034955307 0.039120812
4440000000 -0.020609656 0.010626814
4450000000 -0.058981787 0.011854717
4460000000 -0.077827387 0.058453776
4470000000 -0.053924255 0.10270035
4480000000 -0.0043014367 0.11043528
4490000000 0.027209483 0.066714965
4500000000 0.012497695 0.041404776
4510000000 -0.019024288 0.056071658
4520000000 -0.019752633 0.1032765
4530000000 0.017426398 0.12562343
4540000000 0.076175839 0.10125289
4550000000 0.074226946 0.036110021
4560000000 0.02977646 0.010050798
4570000000 0.012597255 0.041467216
4580000000 0.031320404 0.083170779
4590000000 0.089186206 0.08490853
4600000000 0.10193356 0.010724326
4610000000 0.053703226 -0.031078119
4620000000 -4.2245461e-005 -0.0093930392
4630000000 0.010155406 0.041111413
4640000000 0.062944375 0.04057993
4650000000 0.099523164 -0.0061154887
4660000000 0.062144537 -0.055482879
4670000000 -0.0093769394 -0.048383757
4680000000 -0.022123782 0.012257176
4690000000 0.029418424 0.03587139
4700000000 0.073710576 -0.0047933194
4710000000 0.055150446 -0.059487585
4720000000 0.010764258 -0.065410823
4730000000 -0.016722322 -0.019876832
4740000000 0.010615176 0.028494963
4750000000 0.051279966 0.0045216205
4760000000 0.05463485 -0.03758502
4770000000 0.03645204 -0.062078148
4780000000 0.001093104 -0.044100076
4790000000 0.0087565286 -0.011799005
4800000000 0.039278045 0.0069437181
4810000000 0.070702985 -0.013897471
4820000000 0.044323694 -0.053429808
4830000000 0.0124799 -0.051859491
4840000000 0.012264345 -0.024914801
4850000000 0.03520567 -0.022439685
4860000000 0.053708259 -0.028556189
4870000000 0.054209866 -0.044891246
4880000000 0.03178655 -0.053203534
4890000000 0.011057016 -0.040607672
4900000000 0.010975714 -0.037572447
4910000000 0.017385539 -0.037122857
4920000000 0.023337785 -0.039019175
4930000000 0.03364012 -0.058079779
4940000000 -0.00080846978 -0.06320437
4950000000 -0.013455803 -0.042048931
4960000000 -0.035537161 -0.025465125
4970000000 -0.024938475 -0.022375969
4980000000 -0.017262399 -0.0282641
4990000000 -0.01765302 -0.050443567
5000000000 -0.050314523 -0.049811654
5010000000 -0.071654491 -0.021152573
5020000000 -0.058407709 0.0070030577
5030000000 -0.059329759 0.023709284
5040000000 -0.038346902 0.010886282
5050000000 -0.051940724 -0.015534183
5060000000 -0.079642087 -0.0139087
5070000000 -0.089381941 0.034270547
5080000000 -0.057469178 0.06685622
5090000000 -0.030661412 0.053924639
5100000000 -0.027079307 0.03064353
5110000000 -0.066604696 0.0096299034
5120000000 -0.088844247 0.05084965
5130000000 -0.055110004 0.07702782
5140000000 -0.003535433 0.076713681
5150000000 0.013837034 0.038348772
5160000000 -0.0160938 0.028183261
5170000000 -0.04317585 0.045383021
5180000000 -0.028643399 0.082473896
5190000000 0.014357444 0.079991229
5200000000 0.039711434 0.034633655
5210000000 0.021557942 0.017733226
5220000000 0.0036284334 0.024889452
5230000000 0.0059432592 0.057000749
5240000000 0.022914968 0.061677322
5250000000 0.045459174 0.042680867
5260000000 0.037272315 0.012256427
5270000000 0.028801745 0.0048871087
5280000000 0.02666501 0.017233342
5290000000 0.036750868 0.022391679
5300000000 0.042393409 0.037534688
5310000000 0.044572797 0.030237941
5320000000 0.04442478 0.012853002
5330000000 0.030223617 0.0064633121
5340000000 0.023536032 0.0081929648
5350000000 0.025068469 0.024703693
5360000000 0.042959012 0.028944178
5370000000 0.060407311 0.035502825
5380000000 0.055739712 0.010444582
5390000000 0.02656048 0.0055481615
5400000000 0.0089592282 0.019979401
5410000000 0.031576581 0.037445437
5420000000 0.054557387 0.034365091
5430000000 0.071140945 0.015253196
5440000000 0.062701471 0.001492414
5450000000 0.028307568 0.006136829
5460000000 0.019129975 0.03463525
5470000000 0.035471391 0.035527248
5480000000 0.064769514 0.02135448
5490000000 0.066703036 -0.013117461
5500000000 0.04609888 -0.031418916
5510000000 0.01910669 -0.015134734
5520000000 0.019406026 0.017832231
5530000000 0.048262376 0.016986804
5540000000 0.050896928 -0.018748593
5550000000 0.04242225 -0.055974294
5560000000 -0.0036803558 -0.057415921
5570000000 -0.0042850776 -0.021309435
5580000000 0.012871454 0.0022268919
5590000000 0.036101669 -0.018773736
5600000000 0.013640387 -0.051050745
5610000000 -0.025446884 -0.065134741
5620000000 -0.055150028 -0.043612972
5630000000 -0.040145662 -0.015799955
5640000000 -0.0047103735 -0.0083491048
5650000000 0.0076625897 -0.03540745
5660000000 -0.025094945 -0.062512033
5670000000 -0.070071548 -0.040481932
5680000000 -0.084920526 -0.0015532649
5690000000 -0.043841749 0.027779758
5700000000 -0.0079241293 -0.003420626
5710000000 -0.009903213 -0.030917071
5720000000 -0.061799265 -0.033611797
5730000000 -0.08468762 0.016794071
5740000000 -0.059494808 0.058634337
5750000000 -0.023167493 0.051533077
5760000000 -0.0044385204 0.01314063
5770000000 -0.036993589 -0.010089949
5780000000 -0.052201275 0.017342078
5790000000 -0.048481017 0.066222295
5800000000 -0.0058706459 0.090300545
5810000000 0.010933064 0.070116192
5820000000 0.0074629313 0.037783854
5830000000 -0.021106744 0.037955947
5840000000 -0.032371134 0.057627756
5850000000 -0.011752232 0.099166073
5860000000 0.033684455 0.10088504
5870000000 0.052439142 0.072786503
5880000000 0.019454917 0.045167036
5890000000 -0.020533081 0.057022776
5900000000 -0.023726959 0.094353177
5910000000 0.019602455 0.11001813
5920000000 0.060373537 0.093586698
5930000000 0.053034995 0.053220872
5940000000 0.011654418 0.049889687
5950000000 -0.023331432 0.085393518
5960000000 -0.014383527 0.12302238
5970000000 0.024694283 0.12984842
5980000000 0.050702665 0.083027244
5990000000 0.027907277 0.049723294
6000000000 -0.025764076 0.058778238
6010000000 -0.035874683 0.12785396
6020000000 0.0046019698 0.157107
6030000000 0.052877627 0.12780757
6040000000 0.039087735 0.067946352
6050000000 -0.022575332 0.061099794
6060000000 -0.039515536 0.12158753
6070000000 0.010787669 0.17029546
6080000000 0.067790851 0.15119717
6090000000 0.063579604 0.10201163
6100000000 0.012707383 0.076286986
6110000000 -0.030574521 0.11987687
6120000000 0.0050966041 0.17038386
6130000000 0.065577522 0.159756
6140000000 0.086915411 0.11797199
6150000000 0.062446352 0.086941764
6160000000 0.0064939731 0.1040548
6170000000 0.0083220769 0.1660291
6180000000 0.057377536 0.18744652
6190000000 0.096180744 0.15388939
6200000000 0.083421566 0.11825589
6210000000 0.039898917 0.12945834
6220000000 0.025661314 0.1823025
6230000000 0.054180413 0.23476841
6240000000 0.096131317 0.2372954
6250000000 0.10164598 0.21183018
6260000000 0.077748314 0.21629524
6270000000 0.067419037 0.26151776
6280000000 0.098721534 0.31760716
6290000000 0.15962917 0.34505782
6300000000 0.19582146 0.34060907
6310000000 0.19565885 0.3516995
6320000000 0.21595968 0.39406404
6330000000 0.26315358 0.42974335
6340000000 0.3384507 0.44979683
6350000000 0.40443471 0.43661174
6360000000 0.45236239 0.42231092
6370000000 0.49848205 0.41709465
6380000000 0.56461322 0.41190997
6390000000 0.62927854 0.385901
6400000000 0.70054561 0.3462474
6410000000 0.7636407 0.28437769
6420000000 0.8137477 0.21934445
6430000000 0.8612994 0.1490507
6440000000 0.89952654 0.062394697
6450000000 0.9182176 -0.032790884
6460000000 0.91857767 -0.12835921
6470000000 0.90494758 -0.22193502
6480000000 0.87792534 -0.31301621
6490000000 0.8376345 -0.39884549
6500000000 0.78599679 -0.47740945
6510000000 0.72306406 -0.5467748
6520000000 0.65075737 -0.60049498
6530000000 0.57662565 -0.63465255
6540000000 0.51121175 -0.65370637
6550000000 0.45551622 -0.66989249
6560000000 0.39274982 -0.68874133
6570000000 0.31981963 -0.68833822
6580000000 0.26199061 -0.66607344
6590000000 0.23554468 -0.64171368
6600000000 0.21858568 -0.64488131
6610000000 0.17257734 -0.65878987
6620000000 0.11406426 -0.64235634
6630000000 0.076640308 -0.59840405
6640000000 0.081957147 -0.56969655
6650000000 0.080104284 -0.5864976
6660000000 0.04490019 -0.60677326
6670000000 -0.010364677 -0.59052408
6680000000 -0.040863365 -0.54150492
6690000000 -0.032677658 -0.49880385
6700000000 -0.016393235 -0.49777988
6710000000 -0.045718089 -0.51273268
6720000000 -0.099733472 -0.49855444
6730000000 -0.135914 -0.45257494
6740000000 -0.12023143 -0.39173329
6750000000 -0.095193803 -0.3836219
6760000000 -0.097507507 -0.3899408
6770000000 -0.13168071 -0.37846091
6780000000 -0.15193708 -0.31335133
6790000000 -0.10627223 -0.23391357
6800000000 0.018993052 -0.26734143
6810000000 -0.016450796 -0.37426433
6820000000 -0.07411097 -0.38119182
6830000000 -0.12839372 -0.35021335
6840000000 -0.14207295 -0.2928099
6850000000 -0.11883081 -0.25701579
6860000000 -0.088547938 -0.24528599
6870000000 -0.084797494 -0.27146822
6880000000 -0.11361478 -0.2715337
6890000000 -0.1147571 -0.24753904
6900000000 -0.091826126 -0.21329248
6910000000 -0.050525807 -0.21238627
6920000000 -0.033003449 -0.2476342
6930000000 -0.037674159 -0.27869916
6940000000 -0.062614143 -0.2861425
6950000000 -0.072706349 -0.27734229
6960000000 -0.064782441 -0.28966078
6970000000 -0.069804974 -0.31477985
6980000000 -0.10114878 -0.32821116
6990000000 -0.14793842 -0.32313836
7000000000 -0.17644618 -0.29382154
7010000000 -0.16805771 -0.25987652
7020000000 -0.14982218 -0.2567775
7030000000 -0.1464785 -0.27172661
7040000000 -0.16283128 -0.28105408
7050000000 -0.17957744 -0.25292152
7060000000 -0.17023112 -0.2205812
7070000000 -0.150369 -0.21417874
7080000000 -0.13202526 -0.2309577
7090000000 -0.1391065 -0.24734144
7100000000 -0.16009298 -0.24164037
7110000000 -0.1613957 -0.22171058
7120000000 -0.13873817 -0.20685814
7130000000 -0.11039659 -0.21580012
7140000000 -0.11589937 -0.24010509
7150000000 -0.13586749 -0.25004455
7160000000 -0.13569011 -0.24213721
7170000000 -0.12530652 -0.22649239
7180000000 -0.10244215 -0.23224604
7190000000 -0.098196253 -0.25913438
7200000000 -0.10571344 -0.27272797
7210000000 -0.12417851 -0.2636961
7220000000 -0.12704042 -0.25278109
7230000000 -0.11718629 -0.25949568
7240000000 -0.11273406 -0.27935576
7250000000 -0.12589867 -0.28935453
7260000000 -0.14690088 -0.29244536
7270000000 -0.15607211 -0.28229991
7280000000 -0.14617395 -0.27975783
7290000000 -0.14209378 -0.28785282
7300000000 -0.15428676 -0.3106654
7310000000 -0.18590564 -0.31764972
7320000000 -0.1978915 -0.30731079
7330000000 -0.19684248 -0.29936793
7340000000 -0.20340325 -0.31321701
7350000000 -0.22927484 -0.33380198
7360000000 -0.26696005 -0.3380695
7370000000 -0.29961872 -0.32329088
7380000000 -0.32388189 -0.31476656
7390000000 -0.34731165 -0.31771791
7400000000 -0.38559863 -0.32161745
7410000000 -0.43192932 -0.30250958
7420000000 -0.47041219 -0.26630139
7430000000 -0.4964883 -0.22995397
7440000000 -0.52100784 -0.19490615
7450000000 -0.54997867 -0.14888594
7460000000 -0.57343233 -0.084544748
7470000000 -0.5756436 -0.010133073
7480000000 -0.55569506 0.068234965
7490000000 -0.51013917 0.14307241
7500000000 -0.42870665 0.20901054
7510000000 -0.30825487 0.23098722
7520000000 -0.1770318 0.17552833
7530000000 -0.11659452 0.035161808
7540000000 -0.17633834 -0.075931959
7550000000 -0.26697156 -0.093057863
7560000000 -0.30597246 -0.049085785
7570000000 -0.29024816 -0.019158499
7580000000 -0.26976818 -0.026510229
7590000000 -0.28045231 -0.048497345
7600000000 -0.31129935 -0.048075877
7610000000 -0.33313674 -0.027667163
7620000000 -0.34394717 0.00014327985
7630000000 -0.34395605 0.032050498
7640000000 -0.33293414 0.057944879
7650000000 -0.32032165 0.079172112
7660000000 -0.30281085 0.11012679
